
T2448 000:446 SEGGER J-Link V4.96d Log File (0001ms, 0286ms total)
T2448 000:446 DLL Compiled: Jan 29 2015 11:45:37 (0001ms, 0286ms total)
T2448 000:446 Logging started @ 2019-12-29 15:32 (0001ms, 0286ms total)
T2448 000:447 JLINK_SetWarnOutHandler(...) (0000ms, 0286ms total)
T2448 000:447 JLINK_OpenEx(...)
Firmware: J-Link OB-STM32F072-CortexM compiled Mar  8 2020 11:15:54
Hardware: V1.00
Feature(s): GDB, RDI, FlashBP, FlashDL, JFlash, RDDI  returns O.K. (0270ms, 0556ms total)
T2448 000:717 JLINK_SetErrorOutHandler(...) (0000ms, 0556ms total)
T2448 000:717 JLINK_ExecCommand("ProjectFile = "F:\机器人基地资料\邓金海\调车\（拨弹轮代码）Infantry_FreeRTOS_A\Infantry_FreeRTOS_A\USER\JLinkSettings.ini"", ...)  returns 0x00 (0002ms, 0558ms total)
T2448 000:757 JLINK_ExecCommand("Device = STM32F427II", ...)Device "STM32F427II" selected.  returns 0x00 (0055ms, 0613ms total)
T2448 000:812 JLINK_ExecCommand("DisableConnectionTimeout", ...)  returns 0x01 (0000ms, 0613ms total)
T2448 000:812 JLINK_GetHardwareVersion()  returns 0x2710 (0000ms, 0613ms total)
T2448 000:813 JLINK_GetDLLVersion()  returns 49604 (0000ms, 0614ms total)
T2448 000:813 JLINK_GetFirmwareString(...) (0000ms, 0614ms total)
T2448 000:891 JLINK_GetDLLVersion()  returns 49604 (0000ms, 0614ms total)
T2448 000:891 JLINK_GetCompileDateTime() (0000ms, 0614ms total)
T2448 000:900 JLINK_GetFirmwareString(...) (0000ms, 0614ms total)
T2448 000:905 JLINK_GetHardwareVersion()  returns 0x2710 (0000ms, 0614ms total)
T2448 000:920 JLINK_TIF_Select(JLINKARM_TIF_SWD)  returns 0x00 (0001ms, 0615ms total)
T2448 000:921 JLINK_SetSpeed(5000) (0000ms, 0615ms total)
T2448 000:921 JLINK_GetId() >0x108 TIF>Found SWD-DP with ID 0x2BA01477 >0x0D TIF> >0x28 TIF> >0x0D TIF> >0x28 TIF> >0x0D TIF> >0x21 TIF> >0x0D TIF> >0x28 TIF> >0x0D TIF> >0x28 TIF> >0x0D TIF> >0x28 TIF> >0x0D TIF> >0x21 TIF> >0x0D TIF> >0x21 TIF> >0x0D TIF> >0x28 TIF> >0x0D TIF> >0x21 TIF> >0x0D TIF> >0x21 TIF> >0x0D TIF> >0x28 TIF> >0x0D TIF> >0x28 TIF> >0x0D TIF> >0x28 TIF> >0x0D TIF> >0x21 TIF> >0x0D TIF> >0x21 TIF> >0x0D TIF> >0x28 TIF> >0x0D TIF> >0x28 TIF> >0x108 TIF>Found SWD-DP with ID 0x2BA01477
 >0x0D TIF> >0x21 TIF> >0x0D TIF> >0x28 TIF> >0x0D TIF> >0x28 TIF> >0x0D TIF> >0x21 TIF> >0x0D TIF> >0x28 TIF> >0x0D TIF> >0x21 TIF> >0x0D TIF> >0x21 TIF> >0x0D TIF> >0x21 TIF> >0x0D TIF> >0x21 TIF> >0x0D TIF> >0x28 TIF> >0x0D TIF> >0x28 TIF> >0x0D TIF> >0x21 TIF> >0x0D TIF> >0x28 TIF> >0x0D TIF> >0x28 TIF> >0x0D TIF> >0x28 TIF> >0x0D TIF> >0x21 TIF> >0x0D TIF> >0x21 TIF> >0x0D TIF> >0x28 TIF> >0x0D TIF> >0x21 TIF> >0x0D TIF> >0x21 TIF>Found Cortex-M4 r0p1, Little endian.
 -- CPU_WriteMem(4 bytes @ 0xE0002000) -- CPU_ReadMem(4 bytes @ 0xE000EDF0) -- CPU_WriteMem(4 bytes @ 0xE000EDF0) -- CPU_ReadMem(4 bytes @ 0xE0002000)FPUnit: 6 code (BP) slots and 2 literal slots -- CPU_ReadMem(4 bytes @ 0xE000EDFC) -- CPU_WriteMem(4 bytes @ 0xE000EDFC) -- CPU_ReadMem(4 bytes @ 0xE0001000) -- CPU_WriteMem(4 bytes @ 0xE0001000) -- CPU_ReadMem(4 bytes @ 0xE000ED88) -- CPU_WriteMem(4 bytes @ 0xE000ED88) -- CPU_ReadMem(4 bytes @ 0xE000ED88) -- CPU_WriteMem(4 bytes @ 0xE000ED88)
 -- CPU_ReadMem(4 bytes @ 0xE00FF010)TPIU fitted. -- CPU_ReadMem(4 bytes @ 0xE00FF014)ETM fitted. -- CPU_ReadMem(4 bytes @ 0xE00FF018) >0x0D TIF> >0x21 TIF>  returns 0x2BA01477 (0062ms, 0677ms total)
T2448 000:983 JLINK_GetDLLVersion()  returns 49604 (0000ms, 0677ms total)
T2448 000:983 JLINK_CORE_GetFound()  returns 0xE0000FF (0000ms, 0677ms total)
T2448 000:983 JLINK_GetDebugInfo(0x100) -- Value=0xE00FF003  returns 0x00 (0000ms, 0677ms total)
T2448 000:988 JLINK_ReadMem (0xE00FF000, 0x0020 Bytes, ...) -- CPU is running -- CPU_ReadMem(32 bytes @ 0xE00FF000) - Data: 03 F0 F0 FF 03 20 F0 FF 03 30 F0 FF 03 10 F0 FF ...  returns 0x00 (0002ms, 0679ms total)
T2448 000:990 JLINK_ReadMem (0xE000EFF0, 0x0010 Bytes, ...) -- CPU is running -- CPU_ReadMem(16 bytes @ 0xE000EFF0) - Data: 0D 00 00 00 E0 00 00 00 05 00 00 00 B1 00 00 00  returns 0x00 (0000ms, 0679ms total)
T2448 000:990 JLINK_ReadMem (0xE000EFD0, 0x0020 Bytes, ...) -- CPU is running -- CPU_ReadMem(32 bytes @ 0xE000EFD0) - Data: 04 00 00 00 00 00 00 00 00 00 00 00 00 00 00 00 ...  returns 0x00 (0001ms, 0680ms total)
T2448 000:991 JLINK_ReadMem (0xE0001FF0, 0x0010 Bytes, ...) -- CPU is running -- CPU_ReadMem(16 bytes @ 0xE0001FF0) - Data: 0D 00 00 00 E0 00 00 00 05 00 00 00 B1 00 00 00  returns 0x00 (0001ms, 0681ms total)
T2448 000:992 JLINK_ReadMem (0xE0001FD0, 0x0020 Bytes, ...) -- CPU is running -- CPU_ReadMem(32 bytes @ 0xE0001FD0) - Data: 04 00 00 00 00 00 00 00 00 00 00 00 00 00 00 00 ...  returns 0x00 (0001ms, 0682ms total)
T2448 000:993 JLINK_ReadMem (0xE0002FF0, 0x0010 Bytes, ...) -- CPU is running -- CPU_ReadMem(16 bytes @ 0xE0002FF0) - Data: 0D 00 00 00 E0 00 00 00 05 00 00 00 B1 00 00 00  returns 0x00 (0001ms, 0683ms total)
T2448 000:994 JLINK_ReadMem (0xE0002FD0, 0x0020 Bytes, ...) -- CPU is running -- CPU_ReadMem(32 bytes @ 0xE0002FD0) - Data: 04 00 00 00 00 00 00 00 00 00 00 00 00 00 00 00 ...  returns 0x00 (0001ms, 0684ms total)
T2448 000:995 JLINK_ReadMem (0xE0000FF0, 0x0010 Bytes, ...) -- CPU is running -- CPU_ReadMem(16 bytes @ 0xE0000FF0) - Data: 0D 00 00 00 E0 00 00 00 05 00 00 00 B1 00 00 00  returns 0x00 (0000ms, 0684ms total)
T2448 000:995 JLINK_ReadMem (0xE0000FD0, 0x0020 Bytes, ...) -- CPU is running -- CPU_ReadMem(32 bytes @ 0xE0000FD0) - Data: 04 00 00 00 00 00 00 00 00 00 00 00 00 00 00 00 ...  returns 0x00 (0001ms, 0685ms total)
T2448 000:996 JLINK_ReadMem (0xE0040FF0, 0x0010 Bytes, ...) -- CPU is running -- CPU_ReadMem(16 bytes @ 0xE0040FF0) - Data: 0D 00 00 00 90 00 00 00 05 00 00 00 B1 00 00 00  returns 0x00 (0001ms, 0686ms total)
T2448 000:997 JLINK_ReadMem (0xE0040FD0, 0x0020 Bytes, ...) -- CPU is running -- CPU_ReadMem(32 bytes @ 0xE0040FD0) - Data: 04 00 00 00 00 00 00 00 00 00 00 00 00 00 00 00 ...  returns 0x00 (0001ms, 0687ms total)
T2448 000:998 JLINK_ReadMem (0xE0041FF0, 0x0010 Bytes, ...) -- CPU is running -- CPU_ReadMem(16 bytes @ 0xE0041FF0) - Data: 0D 00 00 00 90 00 00 00 05 00 00 00 B1 00 00 00  returns 0x00 (0000ms, 0687ms total)
T2448 000:998 JLINK_ReadMem (0xE0041FD0, 0x0020 Bytes, ...) -- CPU is running -- CPU_ReadMem(32 bytes @ 0xE0041FD0) - Data: 04 00 00 00 00 00 00 00 00 00 00 00 00 00 00 00 ...  returns 0x00 (0002ms, 0689ms total)
T2448 001:000 JLINK_ReadMemU32(0xE000EF40, 0x0001 Items, ...) -- CPU is running -- CPU_ReadMem(4 bytes @ 0xE000EF40) - Data: 21 00 11 10  returns 0x01 (0000ms, 0689ms total)
T2448 001:000 JLINK_ReadMemU32(0xE000EF44, 0x0001 Items, ...) -- CPU is running -- CPU_ReadMem(4 bytes @ 0xE000EF44) - Data: 11 00 00 11  returns 0x01 (0001ms, 0690ms total)
T2448 001:001 JLINK_ReadMemU32(0xE000ED00, 0x0001 Items, ...) -- CPU is running -- CPU_ReadMem(4 bytes @ 0xE000ED00) - Data: 41 C2 0F 41  returns 0x01 (0001ms, 0691ms total)
T2448 001:002 JLINK_SetResetType(JLINKARM_RESET_TYPE_NORMAL)  returns JLINKARM_RESET_TYPE_NORMAL (0000ms, 0691ms total)
T2448 001:002 JLINK_Reset() -- CPU is running -- CPU_WriteMem(4 bytes @ 0xE000EDF0) -- CPU is running -- CPU_WriteMem(4 bytes @ 0xE000EDFC) >0x35 TIF> -- CPU is running -- CPU_WriteMem(4 bytes @ 0xE000ED0C) -- CPU is running -- CPU_ReadMem(4 bytes @ 0xE000EDF0) -- CPU is running -- CPU_ReadMem(4 bytes @ 0xE000EDF0) -- CPU is running -- CPU_WriteMem(4 bytes @ 0xE000EDF0) -- CPU is running -- CPU_WriteMem(4 bytes @ 0xE000EDFC) -- CPU is running -- CPU_ReadMem(4 bytes @ 0xE000EDF0)
 -- CPU_WriteMem(4 bytes @ 0xE0002000) -- CPU_ReadMem(4 bytes @ 0xE000EDFC) -- CPU_ReadMem(4 bytes @ 0xE0001000) (0022ms, 0713ms total)
T2448 001:024 JLINK_Halt()  returns 0x00 (0000ms, 0713ms total)
T2448 001:024 JLINK_IsHalted()  returns TRUE (0000ms, 0713ms total)
T2448 001:024 JLINK_ReadMemU32(0xE000EDF0, 0x0001 Items, ...) -- CPU_ReadMem(4 bytes @ 0xE000EDF0) - Data: 03 00 03 00  returns 0x01 (0001ms, 0714ms total)
T2448 001:025 JLINK_WriteU32(0xE000EDF0, 0xA05F0003) -- CPU_WriteMem(4 bytes @ 0xE000EDF0)  returns 0x00 (0001ms, 0715ms total)
T2448 001:026 JLINK_WriteU32(0xE000EDFC, 0x01000000) -- CPU_WriteMem(4 bytes @ 0xE000EDFC)  returns 0x00 (0001ms, 0716ms total)
T2448 001:145 JLINK_GetHWStatus(...)  returns 0x00 (0001ms, 0717ms total)
T2448 001:233 JLINK_GetNumBPUnits(Type = 0xFFFFFF00)  returns 0x06 (0000ms, 0717ms total)
T2448 001:233 JLINK_GetNumBPUnits(Type = 0xF0)  returns 0x2000 (0000ms, 0717ms total)
T2448 001:233 JLINK_GetNumWPUnits()  returns 0x04 (0000ms, 0717ms total)
T2448 001:338 JLINK_GetSpeed()  returns 0x7D0 (0000ms, 0717ms total)
T2448 001:396 JLINK_ReadMemU32(0xE000E004, 0x0001 Items, ...) -- CPU_ReadMem(4 bytes @ 0xE000E004) - Data: 02 00 00 00  returns 0x01 (0001ms, 0718ms total)
T2448 001:397 JLINK_ReadMemU32(0xE000E004, 0x0001 Items, ...) -- CPU_ReadMem(4 bytes @ 0xE000E004) - Data: 02 00 00 00  returns 0x01 (0000ms, 0718ms total)
T2448 001:397 JLINK_WriteMem(0xE0001000, 0x001C Bytes, ...) - Data: 01 00 00 00 00 00 00 00 00 00 00 00 00 00 00 00 ... -- CPU_WriteMem(28 bytes @ 0xE0001000)  returns 0x1C (0004ms, 0722ms total)
T2448 001:401 JLINK_ReadMem (0xE0001000, 0x001C Bytes, ...) -- CPU_ReadMem(28 bytes @ 0xE0001000) - Data: 01 00 00 40 00 00 00 00 00 00 00 00 00 00 00 00 ...  returns 0x00 (0002ms, 0724ms total)
T2448 001:403 JLINK_Halt()  returns 0x00 (0000ms, 0724ms total)
T2448 001:403 JLINK_IsHalted()  returns TRUE (0000ms, 0724ms total)
T2448 001:420 JLINK_WriteMem(0x20000000, 0x0198 Bytes, ...) - Data: 00 BE 0A E0 0D 78 2D 06 68 40 08 24 40 00 00 D3 ... -- CPU_WriteMem(408 bytes @ 0x20000000)  returns 0x198 (0008ms, 0732ms total)
T2448 001:428 JLINK_WriteReg(R0, 0x08000000)  returns 0x00 (0000ms, 0732ms total)
T2448 001:428 JLINK_WriteReg(R1, 0x00B71B00)  returns 0x00 (0000ms, 0732ms total)
T2448 001:428 JLINK_WriteReg(R2, 0x00000001)  returns 0x00 (0000ms, 0732ms total)
T2448 001:428 JLINK_WriteReg(R3, 0x00000000)  returns 0x00 (0001ms, 0733ms total)
T2448 001:429 JLINK_WriteReg(R4, 0x00000000)  returns 0x00 (0000ms, 0733ms total)
T2448 001:429 JLINK_WriteReg(R5, 0x00000000)  returns 0x00 (0000ms, 0733ms total)
T2448 001:429 JLINK_WriteReg(R6, 0x00000000)  returns 0x00 (0000ms, 0733ms total)
T2448 001:429 JLINK_WriteReg(R7, 0x00000000)  returns 0x00 (0000ms, 0733ms total)
T2448 001:429 JLINK_WriteReg(R8, 0x00000000)  returns 0x00 (0000ms, 0733ms total)
T2448 001:429 JLINK_WriteReg(R9, 0x20000194)  returns 0x00 (0001ms, 0734ms total)
T2448 001:430 JLINK_WriteReg(R10, 0x00000000)  returns 0x00 (0000ms, 0734ms total)
T2448 001:430 JLINK_WriteReg(R11, 0x00000000)  returns 0x00 (0000ms, 0734ms total)
T2448 001:430 JLINK_WriteReg(R12, 0x00000000)  returns 0x00 (0000ms, 0734ms total)
T2448 001:430 JLINK_WriteReg(R13 (SP), 0x20001000)  returns 0x00 (0000ms, 0734ms total)
T2448 001:430 JLINK_WriteReg(R14, 0x20000001)  returns 0x00 (0000ms, 0734ms total)
T2448 001:430 JLINK_WriteReg(R15 (PC), 0x2000005E)  returns 0x00 (0000ms, 0734ms total)
T2448 001:430 JLINK_WriteReg(XPSR, 0x01000000)  returns 0x00 (0000ms, 0734ms total)
T2448 001:431 JLINK_WriteReg(MSP, 0x20001000)  returns 0x00 (0000ms, 0734ms total)
T2448 001:431 JLINK_WriteReg(PSP, 0x20001000)  returns 0x00 (0000ms, 0734ms total)
T2448 001:431 JLINK_WriteReg(CFBP, 0x00000000)  returns 0x00 (0000ms, 0734ms total)
T2448 001:431 JLINK_SetBPEx(Addr = 0x20000000, Type = 0xFFFFFFF2) -- CPU_ReadMem(2 bytes @ 0x20000000)  returns 0x00000001 (0001ms, 0735ms total)
T2448 001:432 JLINK_Go() -- CPU_WriteMem(2 bytes @ 0x20000000) -- CPU_WriteMem(4 bytes @ 0xE0002008) -- CPU_WriteMem(4 bytes @ 0xE000200C) -- CPU_WriteMem(4 bytes @ 0xE0002010) -- CPU_WriteMem(4 bytes @ 0xE0002014) -- CPU_WriteMem(4 bytes @ 0xE0002018) -- CPU_WriteMem(4 bytes @ 0xE000201C) -- CPU_WriteMem(4 bytes @ 0xE0001004) (0007ms, 0742ms total)
T2448 001:439 JLINK_IsHalted() -- CPU_ReadMem(2 bytes @ 0x20000000)  returns TRUE (0006ms, 0748ms total)
T2448 001:445 JLINK_ReadReg(R15 (PC))  returns 0x20000000 (0000ms, 0742ms total)
T2448 001:445 JLINK_ClrBPEx(BPHandle = 0x00000001)  returns 0x00 (0000ms, 0742ms total)
T2448 001:445 JLINK_ReadReg(R0)  returns 0x00000000 (0000ms, 0742ms total)
T2448 001:446 JLINK_WriteReg(R0, 0x08000000)  returns 0x00 (0000ms, 0742ms total)
T2448 001:447 JLINK_WriteReg(R1, 0x00004000)  returns 0x00 (0000ms, 0742ms total)
T2448 001:447 JLINK_WriteReg(R2, 0x000000FF)  returns 0x00 (0000ms, 0742ms total)
T2448 001:447 JLINK_WriteReg(R3, 0x00000000)  returns 0x00 (0000ms, 0742ms total)
T2448 001:447 JLINK_WriteReg(R4, 0x00000000)  returns 0x00 (0000ms, 0742ms total)
T2448 001:447 JLINK_WriteReg(R5, 0x00000000)  returns 0x00 (0000ms, 0742ms total)
T2448 001:447 JLINK_WriteReg(R6, 0x00000000)  returns 0x00 (0000ms, 0742ms total)
T2448 001:447 JLINK_WriteReg(R7, 0x00000000)  returns 0x00 (0000ms, 0742ms total)
T2448 001:447 JLINK_WriteReg(R8, 0x00000000)  returns 0x00 (0000ms, 0742ms total)
T2448 001:447 JLINK_WriteReg(R9, 0x20000194)  returns 0x00 (0000ms, 0742ms total)
T2448 001:447 JLINK_WriteReg(R10, 0x00000000)  returns 0x00 (0000ms, 0742ms total)
T2448 001:447 JLINK_WriteReg(R11, 0x00000000)  returns 0x00 (0000ms, 0742ms total)
T2448 001:447 JLINK_WriteReg(R12, 0x00000000)  returns 0x00 (0001ms, 0743ms total)
T2448 001:448 JLINK_WriteReg(R13 (SP), 0x20001000)  returns 0x00 (0000ms, 0743ms total)
T2448 001:448 JLINK_WriteReg(R14, 0x20000001)  returns 0x00 (0000ms, 0743ms total)
T2448 001:448 JLINK_WriteReg(R15 (PC), 0x20000020)  returns 0x00 (0000ms, 0743ms total)
T2448 001:448 JLINK_WriteReg(XPSR, 0x01000000)  returns 0x00 (0000ms, 0743ms total)
T2448 001:448 JLINK_WriteReg(MSP, 0x20001000)  returns 0x00 (0000ms, 0743ms total)
T2448 001:448 JLINK_WriteReg(PSP, 0x20001000)  returns 0x00 (0000ms, 0743ms total)
T2448 001:448 JLINK_WriteReg(CFBP, 0x00000000)  returns 0x00 (0000ms, 0743ms total)
T2448 001:448 JLINK_SetBPEx(Addr = 0x20000000, Type = 0xFFFFFFF2)  returns 0x00000002 (0000ms, 0743ms total)
T2448 001:448 JLINK_Go() (0003ms, 0746ms total)
T2448 001:451 JLINK_IsHalted() -- CPU_ReadMem(2 bytes @ 0x20000000)  returns TRUE (0005ms, 0751ms total)
T2448 001:456 JLINK_ReadReg(R15 (PC))  returns 0x20000000 (0001ms, 0747ms total)
T2448 001:457 JLINK_ClrBPEx(BPHandle = 0x00000002)  returns 0x00 (0000ms, 0747ms total)
T2448 001:457 JLINK_ReadReg(R0)  returns 0x00000001 (0000ms, 0747ms total)
T2448 001:457 JLINK_WriteReg(R0, 0x08000000)  returns 0x00 (0000ms, 0747ms total)
T2448 001:457 JLINK_WriteReg(R1, 0x00004000)  returns 0x00 (0000ms, 0747ms total)
T2448 001:457 JLINK_WriteReg(R2, 0x000000FF)  returns 0x00 (0000ms, 0747ms total)
T2448 001:457 JLINK_WriteReg(R3, 0x00000000)  returns 0x00 (0000ms, 0747ms total)
T2448 001:457 JLINK_WriteReg(R4, 0x00000000)  returns 0x00 (0000ms, 0747ms total)
T2448 001:457 JLINK_WriteReg(R5, 0x00000000)  returns 0x00 (0001ms, 0748ms total)
T2448 001:458 JLINK_WriteReg(R6, 0x00000000)  returns 0x00 (0000ms, 0748ms total)
T2448 001:458 JLINK_WriteReg(R7, 0x00000000)  returns 0x00 (0000ms, 0748ms total)
T2448 001:458 JLINK_WriteReg(R8, 0x00000000)  returns 0x00 (0000ms, 0748ms total)
T2448 001:458 JLINK_WriteReg(R9, 0x20000194)  returns 0x00 (0000ms, 0748ms total)
T2448 001:458 JLINK_WriteReg(R10, 0x00000000)  returns 0x00 (0000ms, 0748ms total)
T2448 001:458 JLINK_WriteReg(R11, 0x00000000)  returns 0x00 (0000ms, 0748ms total)
T2448 001:458 JLINK_WriteReg(R12, 0x00000000)  returns 0x00 (0000ms, 0748ms total)
T2448 001:458 JLINK_WriteReg(R13 (SP), 0x20001000)  returns 0x00 (0000ms, 0748ms total)
T2448 001:458 JLINK_WriteReg(R14, 0x20000001)  returns 0x00 (0000ms, 0748ms total)
T2448 001:458 JLINK_WriteReg(R15 (PC), 0x200000D4)  returns 0x00 (0000ms, 0748ms total)
T2448 001:459 JLINK_WriteReg(XPSR, 0x01000000)  returns 0x00 (0000ms, 0749ms total)
T2448 001:459 JLINK_WriteReg(MSP, 0x20001000)  returns 0x00 (0000ms, 0749ms total)
T2448 001:459 JLINK_WriteReg(PSP, 0x20001000)  returns 0x00 (0000ms, 0749ms total)
T2448 001:459 JLINK_WriteReg(CFBP, 0x00000000)  returns 0x00 (0000ms, 0749ms total)
T2448 001:459 JLINK_SetBPEx(Addr = 0x20000000, Type = 0xFFFFFFF2)  returns 0x00000003 (0000ms, 0749ms total)
T2448 001:459 JLINK_Go() (0002ms, 0751ms total)
T2448 001:461 JLINK_IsHalted()  returns FALSE (0001ms, 0752ms total)
T2448 001:927 JLINK_IsHalted() -- CPU_ReadMem(2 bytes @ 0x20000000)  returns TRUE (0005ms, 0756ms total)
T2448 001:932 JLINK_ReadReg(R15 (PC))  returns 0x20000000 (0000ms, 0751ms total)
T2448 001:932 JLINK_ClrBPEx(BPHandle = 0x00000003)  returns 0x00 (0000ms, 0751ms total)
T2448 001:932 JLINK_ReadReg(R0)  returns 0x00000000 (0000ms, 0751ms total)
T2448 001:934 JLINK_WriteReg(R0, 0x08004000)  returns 0x00 (0000ms, 0751ms total)
T2448 001:934 JLINK_WriteReg(R1, 0x00004000)  returns 0x00 (0000ms, 0751ms total)
T2448 001:934 JLINK_WriteReg(R2, 0x000000FF)  returns 0x00 (0000ms, 0751ms total)
T2448 001:934 JLINK_WriteReg(R3, 0x00000000)  returns 0x00 (0000ms, 0751ms total)
T2448 001:934 JLINK_WriteReg(R4, 0x00000000)  returns 0x00 (0000ms, 0751ms total)
T2448 001:934 JLINK_WriteReg(R5, 0x00000000)  returns 0x00 (0000ms, 0751ms total)
T2448 001:934 JLINK_WriteReg(R6, 0x00000000)  returns 0x00 (0000ms, 0751ms total)
T2448 001:934 JLINK_WriteReg(R7, 0x00000000)  returns 0x00 (0000ms, 0751ms total)
T2448 001:934 JLINK_WriteReg(R8, 0x00000000)  returns 0x00 (0000ms, 0751ms total)
T2448 001:934 JLINK_WriteReg(R9, 0x20000194)  returns 0x00 (0000ms, 0751ms total)
T2448 001:934 JLINK_WriteReg(R10, 0x00000000)  returns 0x00 (0000ms, 0751ms total)
T2448 001:934 JLINK_WriteReg(R11, 0x00000000)  returns 0x00 (0000ms, 0751ms total)
T2448 001:934 JLINK_WriteReg(R12, 0x00000000)  returns 0x00 (0000ms, 0751ms total)
T2448 001:934 JLINK_WriteReg(R13 (SP), 0x20001000)  returns 0x00 (0000ms, 0751ms total)
T2448 001:934 JLINK_WriteReg(R14, 0x20000001)  returns 0x00 (0000ms, 0751ms total)
T2448 001:934 JLINK_WriteReg(R15 (PC), 0x20000020)  returns 0x00 (0000ms, 0751ms total)
T2448 001:934 JLINK_WriteReg(XPSR, 0x01000000)  returns 0x00 (0000ms, 0751ms total)
T2448 001:934 JLINK_WriteReg(MSP, 0x20001000)  returns 0x00 (0000ms, 0751ms total)
T2448 001:934 JLINK_WriteReg(PSP, 0x20001000)  returns 0x00 (0000ms, 0751ms total)
T2448 001:934 JLINK_WriteReg(CFBP, 0x00000000)  returns 0x00 (0000ms, 0751ms total)
T2448 001:934 JLINK_SetBPEx(Addr = 0x20000000, Type = 0xFFFFFFF2)  returns 0x00000004 (0000ms, 0751ms total)
T2448 001:934 JLINK_Go() (0003ms, 0754ms total)
T2448 001:937 JLINK_IsHalted() -- CPU_ReadMem(2 bytes @ 0x20000000)  returns TRUE (0006ms, 0760ms total)
T2448 001:943 JLINK_ReadReg(R15 (PC))  returns 0x20000000 (0000ms, 0754ms total)
T2448 001:943 JLINK_ClrBPEx(BPHandle = 0x00000004)  returns 0x00 (0000ms, 0754ms total)
T2448 001:943 JLINK_ReadReg(R0)  returns 0x00000001 (0000ms, 0754ms total)
T2448 001:943 JLINK_WriteReg(R0, 0x08004000)  returns 0x00 (0000ms, 0754ms total)
T2448 001:943 JLINK_WriteReg(R1, 0x00004000)  returns 0x00 (0000ms, 0754ms total)
T2448 001:943 JLINK_WriteReg(R2, 0x000000FF)  returns 0x00 (0000ms, 0754ms total)
T2448 001:943 JLINK_WriteReg(R3, 0x00000000)  returns 0x00 (0000ms, 0754ms total)
T2448 001:943 JLINK_WriteReg(R4, 0x00000000)  returns 0x00 (0000ms, 0754ms total)
T2448 001:943 JLINK_WriteReg(R5, 0x00000000)  returns 0x00 (0000ms, 0754ms total)
T2448 001:943 JLINK_WriteReg(R6, 0x00000000)  returns 0x00 (0000ms, 0754ms total)
T2448 001:943 JLINK_WriteReg(R7, 0x00000000)  returns 0x00 (0000ms, 0754ms total)
T2448 001:943 JLINK_WriteReg(R8, 0x00000000)  returns 0x00 (0000ms, 0754ms total)
T2448 001:943 JLINK_WriteReg(R9, 0x20000194)  returns 0x00 (0000ms, 0754ms total)
T2448 001:943 JLINK_WriteReg(R10, 0x00000000)  returns 0x00 (0000ms, 0754ms total)
T2448 001:943 JLINK_WriteReg(R11, 0x00000000)  returns 0x00 (0001ms, 0755ms total)
T2448 001:944 JLINK_WriteReg(R12, 0x00000000)  returns 0x00 (0000ms, 0755ms total)
T2448 001:944 JLINK_WriteReg(R13 (SP), 0x20001000)  returns 0x00 (0000ms, 0755ms total)
T2448 001:944 JLINK_WriteReg(R14, 0x20000001)  returns 0x00 (0000ms, 0755ms total)
T2448 001:944 JLINK_WriteReg(R15 (PC), 0x200000D4)  returns 0x00 (0000ms, 0755ms total)
T2448 001:944 JLINK_WriteReg(XPSR, 0x01000000)  returns 0x00 (0000ms, 0755ms total)
T2448 001:944 JLINK_WriteReg(MSP, 0x20001000)  returns 0x00 (0000ms, 0755ms total)
T2448 001:944 JLINK_WriteReg(PSP, 0x20001000)  returns 0x00 (0000ms, 0755ms total)
T2448 001:944 JLINK_WriteReg(CFBP, 0x00000000)  returns 0x00 (0000ms, 0755ms total)
T2448 001:944 JLINK_SetBPEx(Addr = 0x20000000, Type = 0xFFFFFFF2)  returns 0x00000005 (0000ms, 0755ms total)
T2448 001:944 JLINK_Go() (0002ms, 0757ms total)
T2448 001:946 JLINK_IsHalted()  returns FALSE (0000ms, 0757ms total)
T2448 002:252 JLINK_IsHalted()  returns FALSE (0001ms, 0758ms total)
T2448 002:547 JLINK_IsHalted() -- CPU_ReadMem(2 bytes @ 0x20000000)  returns TRUE (0006ms, 0763ms total)
T2448 002:553 JLINK_ReadReg(R15 (PC))  returns 0x20000000 (0000ms, 0757ms total)
T2448 002:553 JLINK_ClrBPEx(BPHandle = 0x00000005)  returns 0x00 (0000ms, 0757ms total)
T2448 002:553 JLINK_ReadReg(R0)  returns 0x00000000 (0000ms, 0757ms total)
T2448 002:555 JLINK_WriteReg(R0, 0x08008000)  returns 0x00 (0000ms, 0757ms total)
T2448 002:555 JLINK_WriteReg(R1, 0x00004000)  returns 0x00 (0000ms, 0757ms total)
T2448 002:555 JLINK_WriteReg(R2, 0x000000FF)  returns 0x00 (0000ms, 0757ms total)
T2448 002:555 JLINK_WriteReg(R3, 0x00000000)  returns 0x00 (0000ms, 0757ms total)
T2448 002:555 JLINK_WriteReg(R4, 0x00000000)  returns 0x00 (0000ms, 0757ms total)
T2448 002:555 JLINK_WriteReg(R5, 0x00000000)  returns 0x00 (0000ms, 0757ms total)
T2448 002:555 JLINK_WriteReg(R6, 0x00000000)  returns 0x00 (0000ms, 0757ms total)
T2448 002:555 JLINK_WriteReg(R7, 0x00000000)  returns 0x00 (0000ms, 0757ms total)
T2448 002:555 JLINK_WriteReg(R8, 0x00000000)  returns 0x00 (0000ms, 0757ms total)
T2448 002:555 JLINK_WriteReg(R9, 0x20000194)  returns 0x00 (0000ms, 0757ms total)
T2448 002:555 JLINK_WriteReg(R10, 0x00000000)  returns 0x00 (0000ms, 0757ms total)
T2448 002:555 JLINK_WriteReg(R11, 0x00000000)  returns 0x00 (0000ms, 0757ms total)
T2448 002:555 JLINK_WriteReg(R12, 0x00000000)  returns 0x00 (0000ms, 0757ms total)
T2448 002:555 JLINK_WriteReg(R13 (SP), 0x20001000)  returns 0x00 (0000ms, 0757ms total)
T2448 002:555 JLINK_WriteReg(R14, 0x20000001)  returns 0x00 (0001ms, 0758ms total)
T2448 002:556 JLINK_WriteReg(R15 (PC), 0x20000020)  returns 0x00 (0000ms, 0758ms total)
T2448 002:556 JLINK_WriteReg(XPSR, 0x01000000)  returns 0x00 (0000ms, 0758ms total)
T2448 002:556 JLINK_WriteReg(MSP, 0x20001000)  returns 0x00 (0000ms, 0758ms total)
T2448 002:556 JLINK_WriteReg(PSP, 0x20001000)  returns 0x00 (0000ms, 0758ms total)
T2448 002:556 JLINK_WriteReg(CFBP, 0x00000000)  returns 0x00 (0000ms, 0758ms total)
T2448 002:556 JLINK_SetBPEx(Addr = 0x20000000, Type = 0xFFFFFFF2)  returns 0x00000006 (0000ms, 0758ms total)
T2448 002:556 JLINK_Go() (0002ms, 0760ms total)
T2448 002:558 JLINK_IsHalted() -- CPU_ReadMem(2 bytes @ 0x20000000)  returns TRUE (0006ms, 0766ms total)
T2448 002:564 JLINK_ReadReg(R15 (PC))  returns 0x20000000 (0000ms, 0760ms total)
T2448 002:564 JLINK_ClrBPEx(BPHandle = 0x00000006)  returns 0x00 (0000ms, 0760ms total)
T2448 002:564 JLINK_ReadReg(R0)  returns 0x00000001 (0000ms, 0760ms total)
T2448 002:564 JLINK_WriteReg(R0, 0x08008000)  returns 0x00 (0000ms, 0760ms total)
T2448 002:564 JLINK_WriteReg(R1, 0x00004000)  returns 0x00 (0000ms, 0760ms total)
T2448 002:564 JLINK_WriteReg(R2, 0x000000FF)  returns 0x00 (0000ms, 0760ms total)
T2448 002:564 JLINK_WriteReg(R3, 0x00000000)  returns 0x00 (0000ms, 0760ms total)
T2448 002:564 JLINK_WriteReg(R4, 0x00000000)  returns 0x00 (0000ms, 0760ms total)
T2448 002:564 JLINK_WriteReg(R5, 0x00000000)  returns 0x00 (0000ms, 0760ms total)
T2448 002:564 JLINK_WriteReg(R6, 0x00000000)  returns 0x00 (0000ms, 0760ms total)
T2448 002:564 JLINK_WriteReg(R7, 0x00000000)  returns 0x00 (0000ms, 0760ms total)
T2448 002:564 JLINK_WriteReg(R8, 0x00000000)  returns 0x00 (0000ms, 0760ms total)
T2448 002:564 JLINK_WriteReg(R9, 0x20000194)  returns 0x00 (0000ms, 0760ms total)
T2448 002:564 JLINK_WriteReg(R10, 0x00000000)  returns 0x00 (0000ms, 0760ms total)
T2448 002:564 JLINK_WriteReg(R11, 0x00000000)  returns 0x00 (0000ms, 0760ms total)
T2448 002:564 JLINK_WriteReg(R12, 0x00000000)  returns 0x00 (0000ms, 0760ms total)
T2448 002:564 JLINK_WriteReg(R13 (SP), 0x20001000)  returns 0x00 (0001ms, 0761ms total)
T2448 002:565 JLINK_WriteReg(R14, 0x20000001)  returns 0x00 (0000ms, 0761ms total)
T2448 002:565 JLINK_WriteReg(R15 (PC), 0x200000D4)  returns 0x00 (0000ms, 0761ms total)
T2448 002:565 JLINK_WriteReg(XPSR, 0x01000000)  returns 0x00 (0000ms, 0761ms total)
T2448 002:565 JLINK_WriteReg(MSP, 0x20001000)  returns 0x00 (0000ms, 0761ms total)
T2448 002:565 JLINK_WriteReg(PSP, 0x20001000)  returns 0x00 (0000ms, 0761ms total)
T2448 002:565 JLINK_WriteReg(CFBP, 0x00000000)  returns 0x00 (0000ms, 0761ms total)
T2448 002:565 JLINK_SetBPEx(Addr = 0x20000000, Type = 0xFFFFFFF2)  returns 0x00000007 (0000ms, 0761ms total)
T2448 002:565 JLINK_Go() (0002ms, 0763ms total)
T2448 002:567 JLINK_IsHalted()  returns FALSE (0001ms, 0764ms total)
T2448 002:862 JLINK_IsHalted()  returns FALSE (0000ms, 0763ms total)
T2448 003:167 JLINK_IsHalted() -- CPU_ReadMem(2 bytes @ 0x20000000)  returns TRUE (0005ms, 0768ms total)
T2448 003:172 JLINK_ReadReg(R15 (PC))  returns 0x20000000 (0000ms, 0763ms total)
T2448 003:172 JLINK_ClrBPEx(BPHandle = 0x00000007)  returns 0x00 (0000ms, 0763ms total)
T2448 003:172 JLINK_ReadReg(R0)  returns 0x00000000 (0000ms, 0763ms total)
T2448 003:173 JLINK_WriteReg(R0, 0x0800C000)  returns 0x00 (0000ms, 0763ms total)
T2448 003:173 JLINK_WriteReg(R1, 0x00004000)  returns 0x00 (0000ms, 0763ms total)
T2448 003:173 JLINK_WriteReg(R2, 0x000000FF)  returns 0x00 (0000ms, 0763ms total)
T2448 003:173 JLINK_WriteReg(R3, 0x00000000)  returns 0x00 (0000ms, 0763ms total)
T2448 003:173 JLINK_WriteReg(R4, 0x00000000)  returns 0x00 (0001ms, 0764ms total)
T2448 003:174 JLINK_WriteReg(R5, 0x00000000)  returns 0x00 (0000ms, 0764ms total)
T2448 003:174 JLINK_WriteReg(R6, 0x00000000)  returns 0x00 (0000ms, 0764ms total)
T2448 003:174 JLINK_WriteReg(R7, 0x00000000)  returns 0x00 (0000ms, 0764ms total)
T2448 003:174 JLINK_WriteReg(R8, 0x00000000)  returns 0x00 (0000ms, 0764ms total)
T2448 003:174 JLINK_WriteReg(R9, 0x20000194)  returns 0x00 (0000ms, 0764ms total)
T2448 003:174 JLINK_WriteReg(R10, 0x00000000)  returns 0x00 (0000ms, 0764ms total)
T2448 003:174 JLINK_WriteReg(R11, 0x00000000)  returns 0x00 (0000ms, 0764ms total)
T2448 003:174 JLINK_WriteReg(R12, 0x00000000)  returns 0x00 (0000ms, 0764ms total)
T2448 003:174 JLINK_WriteReg(R13 (SP), 0x20001000)  returns 0x00 (0000ms, 0764ms total)
T2448 003:174 JLINK_WriteReg(R14, 0x20000001)  returns 0x00 (0000ms, 0764ms total)
T2448 003:174 JLINK_WriteReg(R15 (PC), 0x20000020)  returns 0x00 (0000ms, 0764ms total)
T2448 003:174 JLINK_WriteReg(XPSR, 0x01000000)  returns 0x00 (0000ms, 0764ms total)
T2448 003:174 JLINK_WriteReg(MSP, 0x20001000)  returns 0x00 (0000ms, 0764ms total)
T2448 003:174 JLINK_WriteReg(PSP, 0x20001000)  returns 0x00 (0000ms, 0764ms total)
T2448 003:174 JLINK_WriteReg(CFBP, 0x00000000)  returns 0x00 (0000ms, 0764ms total)
T2448 003:174 JLINK_SetBPEx(Addr = 0x20000000, Type = 0xFFFFFFF2)  returns 0x00000008 (0000ms, 0764ms total)
T2448 003:174 JLINK_Go() (0003ms, 0767ms total)
T2448 003:177 JLINK_IsHalted() -- CPU_ReadMem(2 bytes @ 0x20000000)  returns TRUE (0005ms, 0772ms total)
T2448 003:182 JLINK_ReadReg(R15 (PC))  returns 0x20000000 (0000ms, 0767ms total)
T2448 003:182 JLINK_ClrBPEx(BPHandle = 0x00000008)  returns 0x00 (0000ms, 0767ms total)
T2448 003:182 JLINK_ReadReg(R0)  returns 0x00000001 (0000ms, 0767ms total)
T2448 003:182 JLINK_WriteReg(R0, 0x0800C000)  returns 0x00 (0000ms, 0767ms total)
T2448 003:182 JLINK_WriteReg(R1, 0x00004000)  returns 0x00 (0000ms, 0767ms total)
T2448 003:182 JLINK_WriteReg(R2, 0x000000FF)  returns 0x00 (0000ms, 0767ms total)
T2448 003:182 JLINK_WriteReg(R3, 0x00000000)  returns 0x00 (0000ms, 0767ms total)
T2448 003:182 JLINK_WriteReg(R4, 0x00000000)  returns 0x00 (0000ms, 0767ms total)
T2448 003:182 JLINK_WriteReg(R5, 0x00000000)  returns 0x00 (0000ms, 0767ms total)
T2448 003:182 JLINK_WriteReg(R6, 0x00000000)  returns 0x00 (0000ms, 0767ms total)
T2448 003:182 JLINK_WriteReg(R7, 0x00000000)  returns 0x00 (0000ms, 0767ms total)
T2448 003:182 JLINK_WriteReg(R8, 0x00000000)  returns 0x00 (0000ms, 0767ms total)
T2448 003:182 JLINK_WriteReg(R9, 0x20000194)  returns 0x00 (0000ms, 0767ms total)
T2448 003:182 JLINK_WriteReg(R10, 0x00000000)  returns 0x00 (0001ms, 0768ms total)
T2448 003:183 JLINK_WriteReg(R11, 0x00000000)  returns 0x00 (0000ms, 0768ms total)
T2448 003:183 JLINK_WriteReg(R12, 0x00000000)  returns 0x00 (0000ms, 0768ms total)
T2448 003:183 JLINK_WriteReg(R13 (SP), 0x20001000)  returns 0x00 (0000ms, 0768ms total)
T2448 003:183 JLINK_WriteReg(R14, 0x20000001)  returns 0x00 (0000ms, 0768ms total)
T2448 003:183 JLINK_WriteReg(R15 (PC), 0x200000D4)  returns 0x00 (0000ms, 0768ms total)
T2448 003:183 JLINK_WriteReg(XPSR, 0x01000000)  returns 0x00 (0000ms, 0768ms total)
T2448 003:183 JLINK_WriteReg(MSP, 0x20001000)  returns 0x00 (0000ms, 0768ms total)
T2448 003:183 JLINK_WriteReg(PSP, 0x20001000)  returns 0x00 (0000ms, 0768ms total)
T2448 003:183 JLINK_WriteReg(CFBP, 0x00000000)  returns 0x00 (0000ms, 0768ms total)
T2448 003:183 JLINK_SetBPEx(Addr = 0x20000000, Type = 0xFFFFFFF2)  returns 0x00000009 (0000ms, 0768ms total)
T2448 003:183 JLINK_Go() (0002ms, 0770ms total)
T2448 003:185 JLINK_IsHalted()  returns FALSE (0001ms, 0771ms total)
T2448 003:503 JLINK_IsHalted()  returns FALSE (0001ms, 0771ms total)
T2448 003:800 JLINK_IsHalted() -- CPU_ReadMem(2 bytes @ 0x20000000)  returns TRUE (0005ms, 0775ms total)
T2448 003:805 JLINK_ReadReg(R15 (PC))  returns 0x20000000 (0000ms, 0770ms total)
T2448 003:805 JLINK_ClrBPEx(BPHandle = 0x00000009)  returns 0x00 (0000ms, 0770ms total)
T2448 003:805 JLINK_ReadReg(R0)  returns 0x00000000 (0000ms, 0770ms total)
T2448 003:807 JLINK_WriteReg(R0, 0x00000001)  returns 0x00 (0000ms, 0770ms total)
T2448 003:807 JLINK_WriteReg(R1, 0x00004000)  returns 0x00 (0000ms, 0770ms total)
T2448 003:807 JLINK_WriteReg(R2, 0x000000FF)  returns 0x00 (0000ms, 0770ms total)
T2448 003:807 JLINK_WriteReg(R3, 0x00000000)  returns 0x00 (0000ms, 0770ms total)
T2448 003:807 JLINK_WriteReg(R4, 0x00000000)  returns 0x00 (0000ms, 0770ms total)
T2448 003:807 JLINK_WriteReg(R5, 0x00000000)  returns 0x00 (0000ms, 0770ms total)
T2448 003:807 JLINK_WriteReg(R6, 0x00000000)  returns 0x00 (0000ms, 0770ms total)
T2448 003:807 JLINK_WriteReg(R7, 0x00000000)  returns 0x00 (0000ms, 0770ms total)
T2448 003:807 JLINK_WriteReg(R8, 0x00000000)  returns 0x00 (0000ms, 0770ms total)
T2448 003:807 JLINK_WriteReg(R9, 0x20000194)  returns 0x00 (0000ms, 0770ms total)
T2448 003:807 JLINK_WriteReg(R10, 0x00000000)  returns 0x00 (0000ms, 0770ms total)
T2448 003:807 JLINK_WriteReg(R11, 0x00000000)  returns 0x00 (0000ms, 0770ms total)
T2448 003:807 JLINK_WriteReg(R12, 0x00000000)  returns 0x00 (0000ms, 0770ms total)
T2448 003:807 JLINK_WriteReg(R13 (SP), 0x20001000)  returns 0x00 (0000ms, 0770ms total)
T2448 003:807 JLINK_WriteReg(R14, 0x20000001)  returns 0x00 (0000ms, 0770ms total)
T2448 003:807 JLINK_WriteReg(R15 (PC), 0x2000008C)  returns 0x00 (0001ms, 0771ms total)
T2448 003:808 JLINK_WriteReg(XPSR, 0x01000000)  returns 0x00 (0000ms, 0771ms total)
T2448 003:808 JLINK_WriteReg(MSP, 0x20001000)  returns 0x00 (0000ms, 0771ms total)
T2448 003:808 JLINK_WriteReg(PSP, 0x20001000)  returns 0x00 (0000ms, 0771ms total)
T2448 003:808 JLINK_WriteReg(CFBP, 0x00000000)  returns 0x00 (0000ms, 0771ms total)
T2448 003:808 JLINK_SetBPEx(Addr = 0x20000000, Type = 0xFFFFFFF2)  returns 0x0000000A (0000ms, 0771ms total)
T2448 003:808 JLINK_Go() (0002ms, 0773ms total)
T2448 003:810 JLINK_IsHalted() -- CPU_ReadMem(2 bytes @ 0x20000000)  returns TRUE (0006ms, 0779ms total)
T2448 003:816 JLINK_ReadReg(R15 (PC))  returns 0x20000000 (0000ms, 0773ms total)
T2448 003:816 JLINK_ClrBPEx(BPHandle = 0x0000000A)  returns 0x00 (0000ms, 0773ms total)
T2448 003:816 JLINK_ReadReg(R0)  returns 0x00000000 (0000ms, 0773ms total)
T2448 003:897 JLINK_WriteMem(0x20000000, 0x0198 Bytes, ...) - Data: 00 BE 0A E0 0D 78 2D 06 68 40 08 24 40 00 00 D3 ... -- CPU_WriteMem(408 bytes @ 0x20000000)  returns 0x198 (0004ms, 0777ms total)
T2448 003:901 JLINK_WriteReg(R0, 0x08000000)  returns 0x00 (0000ms, 0777ms total)
T2448 003:901 JLINK_WriteReg(R1, 0x00B71B00)  returns 0x00 (0000ms, 0777ms total)
T2448 003:901 JLINK_WriteReg(R2, 0x00000002)  returns 0x00 (0001ms, 0778ms total)
T2448 003:902 JLINK_WriteReg(R3, 0x00000000)  returns 0x00 (0000ms, 0778ms total)
T2448 003:902 JLINK_WriteReg(R4, 0x00000000)  returns 0x00 (0000ms, 0778ms total)
T2448 003:902 JLINK_WriteReg(R5, 0x00000000)  returns 0x00 (0000ms, 0778ms total)
T2448 003:902 JLINK_WriteReg(R6, 0x00000000)  returns 0x00 (0000ms, 0778ms total)
T2448 003:902 JLINK_WriteReg(R7, 0x00000000)  returns 0x00 (0000ms, 0778ms total)
T2448 003:902 JLINK_WriteReg(R8, 0x00000000)  returns 0x00 (0000ms, 0778ms total)
T2448 003:902 JLINK_WriteReg(R9, 0x20000194)  returns 0x00 (0000ms, 0778ms total)
T2448 003:902 JLINK_WriteReg(R10, 0x00000000)  returns 0x00 (0000ms, 0778ms total)
T2448 003:902 JLINK_WriteReg(R11, 0x00000000)  returns 0x00 (0000ms, 0778ms total)
T2448 003:902 JLINK_WriteReg(R12, 0x00000000)  returns 0x00 (0000ms, 0778ms total)
T2448 003:902 JLINK_WriteReg(R13 (SP), 0x20001000)  returns 0x00 (0000ms, 0778ms total)
T2448 003:902 JLINK_WriteReg(R14, 0x20000001)  returns 0x00 (0000ms, 0778ms total)
T2448 003:902 JLINK_WriteReg(R15 (PC), 0x2000005E)  returns 0x00 (0000ms, 0778ms total)
T2448 003:902 JLINK_WriteReg(XPSR, 0x01000000)  returns 0x00 (0000ms, 0778ms total)
T2448 003:902 JLINK_WriteReg(MSP, 0x20001000)  returns 0x00 (0000ms, 0778ms total)
T2448 003:902 JLINK_WriteReg(PSP, 0x20001000)  returns 0x00 (0000ms, 0778ms total)
T2448 003:902 JLINK_WriteReg(CFBP, 0x00000000)  returns 0x00 (0000ms, 0778ms total)
T2448 003:902 JLINK_SetBPEx(Addr = 0x20000000, Type = 0xFFFFFFF2) -- CPU_ReadMem(2 bytes @ 0x20000000)  returns 0x0000000B (0001ms, 0779ms total)
T2448 003:903 JLINK_Go() -- CPU_WriteMem(2 bytes @ 0x20000000) (0004ms, 0783ms total)
T2448 003:907 JLINK_IsHalted() -- CPU_ReadMem(2 bytes @ 0x20000000)  returns TRUE (0006ms, 0789ms total)
T2448 003:913 JLINK_ReadReg(R15 (PC))  returns 0x20000000 (0000ms, 0783ms total)
T2448 003:913 JLINK_ClrBPEx(BPHandle = 0x0000000B)  returns 0x00 (0000ms, 0783ms total)
T2448 003:913 JLINK_ReadReg(R0)  returns 0x00000000 (0000ms, 0783ms total)
T2448 003:915 JLINK_WriteMem(0x20000198, 0x0400 Bytes, ...) - Data: C8 3A 01 20 31 44 00 08 6D 03 00 08 6F 03 00 08 ... -- CPU_WriteMem(1024 bytes @ 0x20000198)  returns 0x400 (0011ms, 0794ms total)
T2448 003:926 JLINK_WriteReg(R0, 0x08000000)  returns 0x00 (0000ms, 0794ms total)
T2448 003:926 JLINK_WriteReg(R1, 0x00000400)  returns 0x00 (0000ms, 0794ms total)
T2448 003:926 JLINK_WriteReg(R2, 0x20000198)  returns 0x00 (0000ms, 0794ms total)
T2448 003:926 JLINK_WriteReg(R3, 0x00000000)  returns 0x00 (0000ms, 0794ms total)
T2448 003:926 JLINK_WriteReg(R4, 0x00000000)  returns 0x00 (0000ms, 0794ms total)
T2448 003:926 JLINK_WriteReg(R5, 0x00000000)  returns 0x00 (0000ms, 0794ms total)
T2448 003:926 JLINK_WriteReg(R6, 0x00000000)  returns 0x00 (0000ms, 0794ms total)
T2448 003:926 JLINK_WriteReg(R7, 0x00000000)  returns 0x00 (0000ms, 0794ms total)
T2448 003:926 JLINK_WriteReg(R8, 0x00000000)  returns 0x00 (0000ms, 0794ms total)
T2448 003:926 JLINK_WriteReg(R9, 0x20000194)  returns 0x00 (0000ms, 0794ms total)
T2448 003:926 JLINK_WriteReg(R10, 0x00000000)  returns 0x00 (0000ms, 0794ms total)
T2448 003:926 JLINK_WriteReg(R11, 0x00000000)  returns 0x00 (0001ms, 0795ms total)
T2448 003:927 JLINK_WriteReg(R12, 0x00000000)  returns 0x00 (0000ms, 0795ms total)
T2448 003:927 JLINK_WriteReg(R13 (SP), 0x20001000)  returns 0x00 (0000ms, 0795ms total)
T2448 003:927 JLINK_WriteReg(R14, 0x20000001)  returns 0x00 (0000ms, 0795ms total)
T2448 003:927 JLINK_WriteReg(R15 (PC), 0x20000120)  returns 0x00 (0000ms, 0795ms total)
T2448 003:927 JLINK_WriteReg(XPSR, 0x01000000)  returns 0x00 (0000ms, 0795ms total)
T2448 003:927 JLINK_WriteReg(MSP, 0x20001000)  returns 0x00 (0000ms, 0795ms total)
T2448 003:927 JLINK_WriteReg(PSP, 0x20001000)  returns 0x00 (0000ms, 0795ms total)
T2448 003:927 JLINK_WriteReg(CFBP, 0x00000000)  returns 0x00 (0000ms, 0795ms total)
T2448 003:927 JLINK_SetBPEx(Addr = 0x20000000, Type = 0xFFFFFFF2)  returns 0x0000000C (0000ms, 0795ms total)
T2448 003:927 JLINK_Go() (0002ms, 0797ms total)
T2448 003:929 JLINK_IsHalted()  returns FALSE (0001ms, 0798ms total)
T2448 004:328 JLINK_IsHalted() -- CPU_ReadMem(2 bytes @ 0x20000000)  returns TRUE (0006ms, 0803ms total)
T2448 004:334 JLINK_ReadReg(R15 (PC))  returns 0x20000000 (0000ms, 0797ms total)
T2448 004:334 JLINK_ClrBPEx(BPHandle = 0x0000000C)  returns 0x00 (0000ms, 0797ms total)
T2448 004:334 JLINK_ReadReg(R0)  returns 0x00000000 (0000ms, 0797ms total)
T2448 004:336 JLINK_WriteMem(0x20000198, 0x0400 Bytes, ...) - Data: 5B 48 05 F0 E0 FD 08 BD 00 B5 87 B0 02 21 5C 48 ... -- CPU_WriteMem(1024 bytes @ 0x20000198)  returns 0x400 (0011ms, 0808ms total)
T2448 004:347 JLINK_WriteReg(R0, 0x08000400)  returns 0x00 (0000ms, 0808ms total)
T2448 004:347 JLINK_WriteReg(R1, 0x00000400)  returns 0x00 (0000ms, 0808ms total)
T2448 004:347 JLINK_WriteReg(R2, 0x20000198)  returns 0x00 (0000ms, 0808ms total)
T2448 004:347 JLINK_WriteReg(R3, 0x00000000)  returns 0x00 (0000ms, 0808ms total)
T2448 004:347 JLINK_WriteReg(R4, 0x00000000)  returns 0x00 (0000ms, 0808ms total)
T2448 004:347 JLINK_WriteReg(R5, 0x00000000)  returns 0x00 (0000ms, 0808ms total)
T2448 004:347 JLINK_WriteReg(R6, 0x00000000)  returns 0x00 (0000ms, 0808ms total)
T2448 004:347 JLINK_WriteReg(R7, 0x00000000)  returns 0x00 (0000ms, 0808ms total)
T2448 004:347 JLINK_WriteReg(R8, 0x00000000)  returns 0x00 (0000ms, 0808ms total)
T2448 004:347 JLINK_WriteReg(R9, 0x20000194)  returns 0x00 (0000ms, 0808ms total)
T2448 004:347 JLINK_WriteReg(R10, 0x00000000)  returns 0x00 (0000ms, 0808ms total)
T2448 004:347 JLINK_WriteReg(R11, 0x00000000)  returns 0x00 (0000ms, 0808ms total)
T2448 004:347 JLINK_WriteReg(R12, 0x00000000)  returns 0x00 (0000ms, 0808ms total)
T2448 004:347 JLINK_WriteReg(R13 (SP), 0x20001000)  returns 0x00 (0000ms, 0808ms total)
T2448 004:347 JLINK_WriteReg(R14, 0x20000001)  returns 0x00 (0000ms, 0808ms total)
T2448 004:347 JLINK_WriteReg(R15 (PC), 0x20000120)  returns 0x00 (0000ms, 0808ms total)
T2448 004:347 JLINK_WriteReg(XPSR, 0x01000000)  returns 0x00 (0000ms, 0808ms total)
T2448 004:348 JLINK_WriteReg(MSP, 0x20001000)  returns 0x00 (0000ms, 0808ms total)
T2448 004:348 JLINK_WriteReg(PSP, 0x20001000)  returns 0x00 (0000ms, 0808ms total)
T2448 004:348 JLINK_WriteReg(CFBP, 0x00000000)  returns 0x00 (0000ms, 0808ms total)
T2448 004:348 JLINK_SetBPEx(Addr = 0x20000000, Type = 0xFFFFFFF2)  returns 0x0000000D (0000ms, 0808ms total)
T2448 004:348 JLINK_Go() (0002ms, 0810ms total)
T2448 004:351 JLINK_IsHalted()  returns FALSE (0000ms, 0811ms total)
T2448 004:765 JLINK_IsHalted() -- CPU_ReadMem(2 bytes @ 0x20000000)  returns TRUE (0005ms, 0816ms total)
T2448 004:770 JLINK_ReadReg(R15 (PC))  returns 0x20000000 (0000ms, 0811ms total)
T2448 004:770 JLINK_ClrBPEx(BPHandle = 0x0000000D)  returns 0x00 (0000ms, 0811ms total)
T2448 004:770 JLINK_ReadReg(R0)  returns 0x00000000 (0000ms, 0811ms total)
T2448 004:773 JLINK_WriteMem(0x20000198, 0x0400 Bytes, ...) - Data: 40 1A F4 EE C1 0A F1 EE 10 FA 03 D2 F1 EE 40 0A ... -- CPU_WriteMem(1024 bytes @ 0x20000198)  returns 0x400 (0011ms, 0822ms total)
T2448 004:784 JLINK_WriteReg(R0, 0x08000800)  returns 0x00 (0000ms, 0822ms total)
T2448 004:784 JLINK_WriteReg(R1, 0x00000400)  returns 0x00 (0000ms, 0822ms total)
T2448 004:784 JLINK_WriteReg(R2, 0x20000198)  returns 0x00 (0000ms, 0822ms total)
T2448 004:784 JLINK_WriteReg(R3, 0x00000000)  returns 0x00 (0000ms, 0822ms total)
T2448 004:784 JLINK_WriteReg(R4, 0x00000000)  returns 0x00 (0000ms, 0822ms total)
T2448 004:784 JLINK_WriteReg(R5, 0x00000000)  returns 0x00 (0000ms, 0822ms total)
T2448 004:784 JLINK_WriteReg(R6, 0x00000000)  returns 0x00 (0000ms, 0822ms total)
T2448 004:784 JLINK_WriteReg(R7, 0x00000000)  returns 0x00 (0000ms, 0822ms total)
T2448 004:784 JLINK_WriteReg(R8, 0x00000000)  returns 0x00 (0000ms, 0822ms total)
T2448 004:784 JLINK_WriteReg(R9, 0x20000194)  returns 0x00 (0000ms, 0822ms total)
T2448 004:784 JLINK_WriteReg(R10, 0x00000000)  returns 0x00 (0000ms, 0822ms total)
T2448 004:784 JLINK_WriteReg(R11, 0x00000000)  returns 0x00 (0000ms, 0822ms total)
T2448 004:784 JLINK_WriteReg(R12, 0x00000000)  returns 0x00 (0000ms, 0822ms total)
T2448 004:784 JLINK_WriteReg(R13 (SP), 0x20001000)  returns 0x00 (0000ms, 0822ms total)
T2448 004:784 JLINK_WriteReg(R14, 0x20000001)  returns 0x00 (0000ms, 0822ms total)
T2448 004:784 JLINK_WriteReg(R15 (PC), 0x20000120)  returns 0x00 (0000ms, 0822ms total)
T2448 004:784 JLINK_WriteReg(XPSR, 0x01000000)  returns 0x00 (0000ms, 0822ms total)
T2448 004:784 JLINK_WriteReg(MSP, 0x20001000)  returns 0x00 (0000ms, 0822ms total)
T2448 004:784 JLINK_WriteReg(PSP, 0x20001000)  returns 0x00 (0000ms, 0822ms total)
T2448 004:784 JLINK_WriteReg(CFBP, 0x00000000)  returns 0x00 (0000ms, 0822ms total)
T2448 004:785 JLINK_SetBPEx(Addr = 0x20000000, Type = 0xFFFFFFF2)  returns 0x0000000E (0000ms, 0822ms total)
T2448 004:785 JLINK_Go() (0002ms, 0824ms total)
T2448 004:787 JLINK_IsHalted()  returns FALSE (0001ms, 0825ms total)
T2448 005:171 JLINK_IsHalted() -- CPU_ReadMem(2 bytes @ 0x20000000)  returns TRUE (0006ms, 0830ms total)
T2448 005:177 JLINK_ReadReg(R15 (PC))  returns 0x20000000 (0000ms, 0824ms total)
T2448 005:177 JLINK_ClrBPEx(BPHandle = 0x0000000E)  returns 0x00 (0000ms, 0824ms total)
T2448 005:177 JLINK_ReadReg(R0)  returns 0x00000000 (0000ms, 0824ms total)
T2448 005:179 JLINK_WriteMem(0x20000198, 0x0400 Bytes, ...) - Data: 08 60 96 20 08 F0 51 FF 40 F6 D6 30 61 49 2C 31 ... -- CPU_WriteMem(1024 bytes @ 0x20000198)  returns 0x400 (0010ms, 0834ms total)
T2448 005:189 JLINK_WriteReg(R0, 0x08000C00)  returns 0x00 (0000ms, 0834ms total)
T2448 005:189 JLINK_WriteReg(R1, 0x00000400)  returns 0x00 (0000ms, 0834ms total)
T2448 005:189 JLINK_WriteReg(R2, 0x20000198)  returns 0x00 (0000ms, 0834ms total)
T2448 005:189 JLINK_WriteReg(R3, 0x00000000)  returns 0x00 (0000ms, 0834ms total)
T2448 005:189 JLINK_WriteReg(R4, 0x00000000)  returns 0x00 (0000ms, 0834ms total)
T2448 005:189 JLINK_WriteReg(R5, 0x00000000)  returns 0x00 (0000ms, 0834ms total)
T2448 005:189 JLINK_WriteReg(R6, 0x00000000)  returns 0x00 (0000ms, 0834ms total)
T2448 005:189 JLINK_WriteReg(R7, 0x00000000)  returns 0x00 (0000ms, 0834ms total)
T2448 005:189 JLINK_WriteReg(R8, 0x00000000)  returns 0x00 (0000ms, 0834ms total)
T2448 005:189 JLINK_WriteReg(R9, 0x20000194)  returns 0x00 (0000ms, 0834ms total)
T2448 005:189 JLINK_WriteReg(R10, 0x00000000)  returns 0x00 (0000ms, 0834ms total)
T2448 005:189 JLINK_WriteReg(R11, 0x00000000)  returns 0x00 (0000ms, 0834ms total)
T2448 005:189 JLINK_WriteReg(R12, 0x00000000)  returns 0x00 (0000ms, 0834ms total)
T2448 005:189 JLINK_WriteReg(R13 (SP), 0x20001000)  returns 0x00 (0000ms, 0834ms total)
T2448 005:189 JLINK_WriteReg(R14, 0x20000001)  returns 0x00 (0000ms, 0834ms total)
T2448 005:189 JLINK_WriteReg(R15 (PC), 0x20000120)  returns 0x00 (0000ms, 0834ms total)
T2448 005:189 JLINK_WriteReg(XPSR, 0x01000000)  returns 0x00 (0000ms, 0834ms total)
T2448 005:189 JLINK_WriteReg(MSP, 0x20001000)  returns 0x00 (0000ms, 0834ms total)
T2448 005:189 JLINK_WriteReg(PSP, 0x20001000)  returns 0x00 (0000ms, 0834ms total)
T2448 005:189 JLINK_WriteReg(CFBP, 0x00000000)  returns 0x00 (0000ms, 0834ms total)
T2448 005:190 JLINK_SetBPEx(Addr = 0x20000000, Type = 0xFFFFFFF2)  returns 0x0000000F (0000ms, 0835ms total)
T2448 005:190 JLINK_Go() (0002ms, 0837ms total)
T2448 005:192 JLINK_IsHalted()  returns FALSE (0001ms, 0838ms total)
T2448 005:539 JLINK_IsHalted() -- CPU_ReadMem(2 bytes @ 0x20000000)  returns TRUE (0005ms, 0842ms total)
T2448 005:544 JLINK_ReadReg(R15 (PC))  returns 0x20000000 (0000ms, 0837ms total)
T2448 005:544 JLINK_ClrBPEx(BPHandle = 0x0000000F)  returns 0x00 (0000ms, 0837ms total)
T2448 005:544 JLINK_ReadReg(R0)  returns 0x00000000 (0000ms, 0837ms total)
T2448 005:546 JLINK_WriteMem(0x20000198, 0x0400 Bytes, ...) - Data: 95 F9 05 A8 04 F0 B6 FA 00 20 8D F8 1A 00 8D F8 ... -- CPU_WriteMem(1024 bytes @ 0x20000198)  returns 0x400 (0010ms, 0847ms total)
T2448 005:556 JLINK_WriteReg(R0, 0x08001000)  returns 0x00 (0000ms, 0847ms total)
T2448 005:556 JLINK_WriteReg(R1, 0x00000400)  returns 0x00 (0000ms, 0847ms total)
T2448 005:556 JLINK_WriteReg(R2, 0x20000198)  returns 0x00 (0000ms, 0847ms total)
T2448 005:556 JLINK_WriteReg(R3, 0x00000000)  returns 0x00 (0000ms, 0847ms total)
T2448 005:556 JLINK_WriteReg(R4, 0x00000000)  returns 0x00 (0000ms, 0847ms total)
T2448 005:556 JLINK_WriteReg(R5, 0x00000000)  returns 0x00 (0000ms, 0847ms total)
T2448 005:556 JLINK_WriteReg(R6, 0x00000000)  returns 0x00 (0000ms, 0847ms total)
T2448 005:556 JLINK_WriteReg(R7, 0x00000000)  returns 0x00 (0000ms, 0847ms total)
T2448 005:556 JLINK_WriteReg(R8, 0x00000000)  returns 0x00 (0000ms, 0847ms total)
T2448 005:556 JLINK_WriteReg(R9, 0x20000194)  returns 0x00 (0000ms, 0847ms total)
T2448 005:557 JLINK_WriteReg(R10, 0x00000000)  returns 0x00 (0000ms, 0847ms total)
T2448 005:557 JLINK_WriteReg(R11, 0x00000000)  returns 0x00 (0000ms, 0847ms total)
T2448 005:557 JLINK_WriteReg(R12, 0x00000000)  returns 0x00 (0000ms, 0847ms total)
T2448 005:557 JLINK_WriteReg(R13 (SP), 0x20001000)  returns 0x00 (0000ms, 0847ms total)
T2448 005:557 JLINK_WriteReg(R14, 0x20000001)  returns 0x00 (0000ms, 0847ms total)
T2448 005:557 JLINK_WriteReg(R15 (PC), 0x20000120)  returns 0x00 (0000ms, 0847ms total)
T2448 005:557 JLINK_WriteReg(XPSR, 0x01000000)  returns 0x00 (0000ms, 0847ms total)
T2448 005:557 JLINK_WriteReg(MSP, 0x20001000)  returns 0x00 (0000ms, 0847ms total)
T2448 005:557 JLINK_WriteReg(PSP, 0x20001000)  returns 0x00 (0000ms, 0847ms total)
T2448 005:557 JLINK_WriteReg(CFBP, 0x00000000)  returns 0x00 (0000ms, 0847ms total)
T2448 005:557 JLINK_SetBPEx(Addr = 0x20000000, Type = 0xFFFFFFF2)  returns 0x00000010 (0000ms, 0847ms total)
T2448 005:557 JLINK_Go() (0003ms, 0850ms total)
T2448 005:560 JLINK_IsHalted()  returns FALSE (0000ms, 0850ms total)
T2448 005:945 JLINK_IsHalted() -- CPU_ReadMem(2 bytes @ 0x20000000)  returns TRUE (0006ms, 0856ms total)
T2448 005:951 JLINK_ReadReg(R15 (PC))  returns 0x20000000 (0000ms, 0850ms total)
T2448 005:951 JLINK_ClrBPEx(BPHandle = 0x00000010)  returns 0x00 (0000ms, 0850ms total)
T2448 005:951 JLINK_ReadReg(R0)  returns 0x00000000 (0000ms, 0850ms total)
T2448 005:952 JLINK_WriteMem(0x20000198, 0x0400 Bytes, ...) - Data: 00 20 AD F8 04 00 AD F8 06 00 AD F8 08 00 0C 20 ... -- CPU_WriteMem(1024 bytes @ 0x20000198)  returns 0x400 (0011ms, 0861ms total)
T2448 005:963 JLINK_WriteReg(R0, 0x08001400)  returns 0x00 (0000ms, 0861ms total)
T2448 005:963 JLINK_WriteReg(R1, 0x00000400)  returns 0x00 (0000ms, 0861ms total)
T2448 005:963 JLINK_WriteReg(R2, 0x20000198)  returns 0x00 (0000ms, 0861ms total)
T2448 005:963 JLINK_WriteReg(R3, 0x00000000)  returns 0x00 (0000ms, 0861ms total)
T2448 005:963 JLINK_WriteReg(R4, 0x00000000)  returns 0x00 (0000ms, 0861ms total)
T2448 005:963 JLINK_WriteReg(R5, 0x00000000)  returns 0x00 (0000ms, 0861ms total)
T2448 005:963 JLINK_WriteReg(R6, 0x00000000)  returns 0x00 (0000ms, 0861ms total)
T2448 005:963 JLINK_WriteReg(R7, 0x00000000)  returns 0x00 (0000ms, 0861ms total)
T2448 005:964 JLINK_WriteReg(R8, 0x00000000)  returns 0x00 (0000ms, 0862ms total)
T2448 005:964 JLINK_WriteReg(R9, 0x20000194)  returns 0x00 (0000ms, 0862ms total)
T2448 005:964 JLINK_WriteReg(R10, 0x00000000)  returns 0x00 (0000ms, 0862ms total)
T2448 005:964 JLINK_WriteReg(R11, 0x00000000)  returns 0x00 (0000ms, 0862ms total)
T2448 005:964 JLINK_WriteReg(R12, 0x00000000)  returns 0x00 (0000ms, 0862ms total)
T2448 005:964 JLINK_WriteReg(R13 (SP), 0x20001000)  returns 0x00 (0000ms, 0862ms total)
T2448 005:964 JLINK_WriteReg(R14, 0x20000001)  returns 0x00 (0000ms, 0862ms total)
T2448 005:964 JLINK_WriteReg(R15 (PC), 0x20000120)  returns 0x00 (0000ms, 0862ms total)
T2448 005:964 JLINK_WriteReg(XPSR, 0x01000000)  returns 0x00 (0000ms, 0862ms total)
T2448 005:964 JLINK_WriteReg(MSP, 0x20001000)  returns 0x00 (0000ms, 0862ms total)
T2448 005:964 JLINK_WriteReg(PSP, 0x20001000)  returns 0x00 (0000ms, 0862ms total)
T2448 005:964 JLINK_WriteReg(CFBP, 0x00000000)  returns 0x00 (0000ms, 0862ms total)
T2448 005:964 JLINK_SetBPEx(Addr = 0x20000000, Type = 0xFFFFFFF2)  returns 0x00000011 (0000ms, 0862ms total)
T2448 005:964 JLINK_Go() (0003ms, 0865ms total)
T2448 005:967 JLINK_IsHalted()  returns FALSE (0001ms, 0866ms total)
T2448 006:361 JLINK_IsHalted() -- CPU_ReadMem(2 bytes @ 0x20000000)  returns TRUE (0005ms, 0870ms total)
T2448 006:366 JLINK_ReadReg(R15 (PC))  returns 0x20000000 (0000ms, 0865ms total)
T2448 006:366 JLINK_ClrBPEx(BPHandle = 0x00000011)  returns 0x00 (0000ms, 0865ms total)
T2448 006:366 JLINK_ReadReg(R0)  returns 0x00000000 (0000ms, 0865ms total)
T2448 006:369 JLINK_WriteMem(0x20000198, 0x0400 Bytes, ...) - Data: 4A 4B E0 1D 19 18 4D 48 2B 30 09 F0 9C FF 2B E0 ... -- CPU_WriteMem(1024 bytes @ 0x20000198)  returns 0x400 (0010ms, 0875ms total)
T2448 006:379 JLINK_WriteReg(R0, 0x08001800)  returns 0x00 (0000ms, 0875ms total)
T2448 006:379 JLINK_WriteReg(R1, 0x00000400)  returns 0x00 (0000ms, 0875ms total)
T2448 006:379 JLINK_WriteReg(R2, 0x20000198)  returns 0x00 (0000ms, 0875ms total)
T2448 006:379 JLINK_WriteReg(R3, 0x00000000)  returns 0x00 (0000ms, 0875ms total)
T2448 006:379 JLINK_WriteReg(R4, 0x00000000)  returns 0x00 (0000ms, 0875ms total)
T2448 006:379 JLINK_WriteReg(R5, 0x00000000)  returns 0x00 (0000ms, 0875ms total)
T2448 006:379 JLINK_WriteReg(R6, 0x00000000)  returns 0x00 (0000ms, 0875ms total)
T2448 006:379 JLINK_WriteReg(R7, 0x00000000)  returns 0x00 (0000ms, 0875ms total)
